Vg	absId	absIg	absIs	Vd	Ig	Id
5	2.79042E-09	4.3063E-09	3.624E-11	-5	4.3063E-09	-2.79042E-09
4.5	2.28742E-09	1.33052E-09	3.6398E-10	-5	1.33052E-09	-2.28742E-09
4	2.25861E-09	1.44631E-09	6.9965E-10	-5	1.44631E-09	-2.25861E-09
3.5	2.35136E-09	1.19006E-09	1.08738E-09	-5	1.19006E-09	-2.35136E-09
3	2.56483E-09	9.303E-10	1.54099E-09	-5	9.303E-10	-2.56483E-09
2.5	2.89419E-09	5.75E-10	2.09341E-09	-5	5.75E-10	-2.89419E-09
2	3.39097E-09	4.9145E-10	2.75291E-09	-5	4.9145E-10	-3.39097E-09
1.5	4.04337E-09	3.864E-10	3.57044E-09	-5	3.864E-10	-4.04337E-09
1	4.86799E-09	1.234E-10	4.57862E-09	-5	1.234E-10	-4.86799E-09
0.5	5.96514E-09	4.257E-11	5.81281E-09	-5	4.257E-11	-5.96514E-09
0	7.39564E-09	2.651E-11	7.3472E-09	-5	-2.651E-11	-7.39564E-09
-0.5	9.17363E-09	1.4661E-10	9.2481E-09	-5	-1.4661E-10	-9.17363E-09
-1	1.14539E-08	2.4634E-10	1.16384E-08	-5	-2.4634E-10	-1.14539E-08
-1.5	1.42376E-08	4.944E-10	1.46269E-08	-5	-4.944E-10	-1.42376E-08
-2	1.78574E-08	6.4917E-10	1.84058E-08	-5	-6.4917E-10	-1.78574E-08
-2.5	2.26215E-08	7.1965E-10	2.32913E-08	-5	-7.1965E-10	-2.26215E-08
-3	2.88028E-08	8.855E-10	2.96485E-08	-5	-8.855E-10	-2.88028E-08
-3.5	3.7108E-08	1.09145E-09	3.81627E-08	-5	-1.09145E-09	-3.7108E-08
-4	4.86581E-08	1.17273E-09	4.9862E-08	-5	-1.17273E-09	-4.86581E-08
-4.5	6.44909E-08	1.457E-09	6.60366E-08	-5	-1.457E-09	-6.44909E-08
-5	8.67829E-08	1.63385E-09	8.86255E-08	-5	-1.63385E-09	-8.67829E-08
-5.5	1.18489E-07	1.6768E-09	1.20575E-07	-5	-1.6768E-09	-1.18489E-07
-6	1.61074E-07	2.0124E-09	1.63723E-07	-5	-2.0124E-09	-1.61074E-07
-6.5	2.19519E-07	2.13649E-09	2.22557E-07	-5	-2.13649E-09	-2.19519E-07
-7	2.94759E-07	2.5268E-09	2.98593E-07	-5	-2.5268E-09	-2.94759E-07
-7.5	3.90021E-07	3.0262E-09	3.94806E-07	-5	-3.0262E-09	-3.90021E-07
-8	5.08059E-07	3.441E-09	5.13794E-07	-5	-3.441E-09	-5.08059E-07
-8.5	6.51021E-07	3.9089E-09	6.57756E-07	-5	-3.9089E-09	-6.51021E-07
-9	8.18977E-07	4.385E-09	8.26704E-07	-5	-4.385E-09	-8.18977E-07
-9.5	1.012887E-06	4.8348E-09	1.021444E-06	-5	-4.8348E-09	-1.012887E-06
-10	1.23729E-06	4.7529E-09	1.24612E-06	-5	-4.7529E-09	-1.23729E-06
-10.5	1.47762E-06	5.2345E-09	1.48673E-06	-5	-5.2345E-09	-1.47762E-06
-11	1.74018E-06	5.4512E-09	1.75E-06	-5	-5.4512E-09	-1.74018E-06
-11.5	2.02326E-06	5.7648E-09	2.03383E-06	-5	-5.7648E-09	-2.02326E-06
-12	2.32358E-06	6.0909E-09	2.33485E-06	-5	-6.0909E-09	-2.32358E-06
-12.5	2.6371E-06	6.9969E-09	2.64987E-06	-5	-6.9969E-09	-2.6371E-06
-13	2.96698E-06	7.1482E-09	2.98011E-06	-5	-7.1482E-09	-2.96698E-06
-13.5	3.30718E-06	7.9277E-09	3.3215E-06	-5	-7.9277E-09	-3.30718E-06
-14	3.65795E-06	8.3761E-09	3.67303E-06	-5	-8.3761E-09	-3.65795E-06
-14.5	4.02078E-06	8.6915E-09	4.03613E-06	-5	-8.6915E-09	-4.02078E-06
-15	4.38924E-06	9.2252E-09	4.40543E-06	-5	-9.2252E-09	-4.38924E-06
-15.5	4.76689E-06	9.618E-09	4.78365E-06	-5	-9.618E-09	-4.76689E-06
-16	5.14961E-06	1.01213E-08	5.16689E-06	-5	-1.01213E-08	-5.14961E-06
-16.5	5.54062E-06	1.03877E-08	5.55822E-06	-5	-1.03877E-08	-5.54062E-06
-17	5.93589E-06	1.09398E-08	5.95413E-06	-5	-1.09398E-08	-5.93589E-06
-17.5	6.33513E-06	1.1234E-08	6.35372E-06	-5	-1.1234E-08	-6.33513E-06
-18	6.74014E-06	1.14747E-08	6.75902E-06	-5	-1.14747E-08	-6.74014E-06
-18.5	7.14798E-06	1.1642E-08	7.16705E-06	-5	-1.1642E-08	-7.14798E-06
-19	7.56065E-06	1.17867E-08	7.57993E-06	-5	-1.17867E-08	-7.56065E-06
-19.5	7.97607E-06	1.19025E-08	7.9956E-06	-5	-1.19025E-08	-7.97607E-06
-20	8.39603E-06	1.20466E-08	8.41574E-06	-5	-1.20466E-08	-8.39603E-06
-20.5	8.8177E-06	1.22138E-08	8.83772E-06	-5	-1.22138E-08	-8.8177E-06
-21	9.24387E-06	1.24178E-08	9.26406E-06	-5	-1.24178E-08	-9.24387E-06
-21.5	9.67286E-06	1.26595E-08	9.69334E-06	-5	-1.26595E-08	-9.67286E-06
-22	1.010343E-05	1.28873E-08	1.012436E-05	-5	-1.28873E-08	-1.010343E-05
-22.5	1.053795E-05	1.31385E-08	1.055908E-05	-5	-1.31385E-08	-1.053795E-05
-23	1.09739E-05	1.34024E-08	1.099544E-05	-5	-1.34024E-08	-1.09739E-05
-23.5	1.141386E-05	1.36827E-08	1.143571E-05	-5	-1.36827E-08	-1.141386E-05
-24	1.18663E-05	1.21973E-08	1.18869E-05	-5	-1.21973E-08	-1.18663E-05
-24.5	1.23092E-05	1.36456E-08	1.23302E-05	-5	-1.36456E-08	-1.23092E-05
-25	1.27545E-05	1.39807E-08	1.27761E-05	-5	-1.39807E-08	-1.27545E-05
-25.5	1.32045E-05	1.42398E-08	1.32266E-05	-5	-1.42398E-08	-1.32045E-05
-26	1.3656E-05	1.44614E-08	1.36782E-05	-5	-1.44614E-08	-1.3656E-05
-26.5	1.41117E-05	1.47972E-08	1.41343E-05	-5	-1.47972E-08	-1.41117E-05
-27	1.45686E-05	1.49981E-08	1.45917E-05	-5	-1.49981E-08	-1.45686E-05
-27.5	1.50296E-05	1.52445E-08	1.5053E-05	-5	-1.52445E-08	-1.50296E-05
-28	1.54935E-05	1.55309E-08	1.55173E-05	-5	-1.55309E-08	-1.54935E-05
-28.5	1.5959E-05	1.58635E-08	1.5983E-05	-5	-1.58635E-08	-1.5959E-05
-29	1.64281E-05	1.60192E-08	1.64524E-05	-5	-1.60192E-08	-1.64281E-05
-29.5	1.6899E-05	1.62953E-08	1.69237E-05	-5	-1.62953E-08	-1.6899E-05
-30	1.73733E-05	1.68663E-08	1.73992E-05	-5	-1.68663E-08	-1.73733E-05
-30.5	1.78504E-05	1.72452E-08	1.78763E-05	-5	-1.72452E-08	-1.78504E-05
-31	1.83305E-05	1.76068E-08	1.8357E-05	-5	-1.76068E-08	-1.83305E-05
-31.5	1.88144E-05	1.77416E-08	1.88414E-05	-5	-1.77416E-08	-1.88144E-05
-32	1.92993E-05	1.82174E-08	1.9327E-05	-5	-1.82174E-08	-1.92993E-05
-32.5	1.97878E-05	1.87519E-08	1.98157E-05	-5	-1.87519E-08	-1.97878E-05
-33	2.02803E-05	1.91567E-08	2.0309E-05	-5	-1.91567E-08	-2.02803E-05
-33.5	2.07739E-05	1.97984E-08	2.08037E-05	-5	-1.97984E-08	-2.07739E-05
-34	2.12705E-05	2.06038E-08	2.13013E-05	-5	-2.06038E-08	-2.12705E-05
-34.5	2.17716E-05	2.17137E-08	2.18036E-05	-5	-2.17137E-08	-2.17716E-05
-35	2.22737E-05	2.32326E-08	2.23069E-05	-5	-2.32326E-08	-2.22737E-05
-35.5	2.27784E-05	2.48161E-08	2.28143E-05	-5	-2.48161E-08	-2.27784E-05
-36	2.32882E-05	2.69978E-08	2.33263E-05	-5	-2.69978E-08	-2.32882E-05
-36.5	2.37996E-05	2.94444E-08	2.384E-05	-5	-2.94444E-08	-2.37996E-05
-37	2.43143E-05	3.23679E-08	2.43571E-05	-5	-3.23679E-08	-2.43143E-05
-37.5	2.48328E-05	3.45221E-08	2.48789E-05	-5	-3.45221E-08	-2.48328E-05
-38	2.53535E-05	3.72603E-08	2.54021E-05	-5	-3.72603E-08	-2.53535E-05
-38.5	2.58789E-05	3.9685E-08	2.59296E-05	-5	-3.9685E-08	-2.58789E-05
-39	2.64049E-05	4.22556E-08	2.64591E-05	-5	-4.22556E-08	-2.64049E-05
-39.5	2.69357E-05	4.57137E-08	2.69928E-05	-5	-4.57137E-08	-2.69357E-05
-40	2.74699E-05	4.88417E-08	2.75306E-05	-5	-4.88417E-08	-2.74699E-05
-40	2.75131E-05	4.48686E-08	2.7568E-05	-5	-4.48686E-08	-2.75131E-05
-39.5	2.70588E-05	3.72355E-08	2.71013E-05	-5	-3.72355E-08	-2.70588E-05
-39	2.65879E-05	3.29762E-08	2.66243E-05	-5	-3.29762E-08	-2.65879E-05
-38.5	2.61119E-05	3.13312E-08	2.61437E-05	-5	-3.13312E-08	-2.61119E-05
-38	2.56314E-05	2.83604E-08	2.56597E-05	-5	-2.83604E-08	-2.56314E-05
-37.5	2.51511E-05	2.55999E-08	2.51752E-05	-5	-2.55999E-08	-2.51511E-05
-37	2.46672E-05	2.35709E-08	2.46886E-05	-5	-2.35709E-08	-2.46672E-05
-36.5	2.41852E-05	2.11529E-08	2.42036E-05	-5	-2.11529E-08	-2.41852E-05
-36	2.37031E-05	1.93619E-08	2.37188E-05	-5	-1.93619E-08	-2.37031E-05
-35.5	2.32201E-05	1.77054E-08	2.32337E-05	-5	-1.77054E-08	-2.32201E-05
-35	2.27397E-05	1.59063E-08	2.27505E-05	-5	-1.59063E-08	-2.27397E-05
-34.5	2.22606E-05	1.45153E-08	2.22702E-05	-5	-1.45153E-08	-2.22606E-05
-34	2.17808E-05	1.28937E-08	2.1788E-05	-5	-1.28937E-08	-2.17808E-05
-33.5	2.1302E-05	1.20128E-08	2.13084E-05	-5	-1.20128E-08	-2.1302E-05
-33	2.08265E-05	1.0322E-08	2.08307E-05	-5	-1.0322E-08	-2.08265E-05
-32.5	2.03487E-05	9.7544E-09	2.0352E-05	-5	-9.7544E-09	-2.03487E-05
-32	1.98783E-05	7.4968E-09	1.98797E-05	-5	-7.4968E-09	-1.98783E-05
-31.5	1.93774E-05	1.0978E-08	1.93843E-05	-5	-1.0978E-08	-1.93774E-05
-31	1.89175E-05	7.8039E-09	1.89199E-05	-5	-7.8039E-09	-1.89175E-05
-30.5	1.84285E-05	9.4507E-09	1.84338E-05	-5	-9.4507E-09	-1.84285E-05
-30	1.79753E-05	6.4024E-09	1.79762E-05	-5	-6.4024E-09	-1.79753E-05
-29.5	1.74925E-05	7.7579E-09	1.74959E-05	-5	-7.7579E-09	-1.74925E-05
-29	1.70446E-05	4.7954E-09	1.7044E-05	-5	-4.7954E-09	-1.70446E-05
-28.5	1.65906E-05	3.7043E-09	1.65882E-05	-5	-3.7043E-09	-1.65906E-05
-28	1.61117E-05	5.6732E-09	1.61126E-05	-5	-5.6732E-09	-1.61117E-05
-27.5	1.5645E-05	5.3924E-09	1.56463E-05	-5	-5.3924E-09	-1.5645E-05
-27	1.52071E-05	1.8726E-09	1.52035E-05	-5	-1.8726E-09	-1.52071E-05
-26.5	1.47628E-05	1.6069E-09	1.47581E-05	-5	-1.6069E-09	-1.47628E-05
-26	1.43217E-05	1.431E-10	1.43146E-05	-5	1.431E-10	-1.43217E-05
-25.5	1.38743E-05	8.0813E-10	1.38683E-05	-5	-8.0813E-10	-1.38743E-05
-25	1.34248E-05	1.09518E-09	1.34194E-05	-5	-1.09518E-09	-1.34248E-05
-24.5	1.29805E-05	9.0012E-10	1.29751E-05	-5	-9.0012E-10	-1.29805E-05
-24	1.25386E-05	6.2981E-10	1.25327E-05	-5	-6.2981E-10	-1.25386E-05
-23.5	1.20997E-05	4.276E-10	1.20938E-05	-5	-4.276E-10	-1.20997E-05
-23	1.16625E-05	1.5244E-10	1.16562E-05	-5	-1.5244E-10	-1.16625E-05
-22.5	1.12315E-05	4.298E-10	1.12245E-05	-5	4.298E-10	-1.12315E-05
-22	1.08063E-05	1.4857E-09	1.07974E-05	-5	1.4857E-09	-1.08063E-05
-21.5	1.03792E-05	1.37586E-09	1.03707E-05	-5	1.37586E-09	-1.03792E-05
-21	9.94695E-06	1.09521E-09	9.93892E-06	-5	1.09521E-09	-9.94695E-06
-20.5	9.52073E-06	1.12338E-09	9.51351E-06	-5	1.12338E-09	-9.52073E-06
-20	9.10207E-06	1.6154E-09	9.09422E-06	-5	1.6154E-09	-9.10207E-06
-19.5	8.6937E-06	3.501E-09	8.6833E-06	-5	3.501E-09	-8.6937E-06
-19	8.28131E-06	2.9839E-09	8.27121E-06	-5	2.9839E-09	-8.28131E-06
-18.5	7.87207E-06	3.2594E-09	7.86158E-06	-5	3.2594E-09	-7.87207E-06
-18	7.46666E-06	3.4592E-09	7.45585E-06	-5	3.4592E-09	-7.46666E-06
-17.5	7.06295E-06	3.5718E-09	7.05194E-06	-5	3.5718E-09	-7.06295E-06
-17	6.66442E-06	3.7764E-09	6.65309E-06	-5	3.7764E-09	-6.66442E-06
-16.5	6.26876E-06	3.9779E-09	6.25725E-06	-5	3.9779E-09	-6.26876E-06
-16	5.87687E-06	4.0557E-09	5.86522E-06	-5	4.0557E-09	-5.87687E-06
-15.5	5.49109E-06	4.1473E-09	5.47929E-06	-5	4.1473E-09	-5.49109E-06
-15	5.10535E-06	3.76566E-09	5.09425E-06	-5	3.76566E-09	-5.10535E-06
-14.5	4.72518E-06	3.607E-09	4.71458E-06	-5	3.607E-09	-4.72518E-06
-14	4.35823E-06	4.2563E-09	4.34662E-06	-5	4.2563E-09	-4.35823E-06
-13.5	3.99716E-06	4.2954E-09	3.98542E-06	-5	4.2954E-09	-3.99716E-06
-13	3.64283E-06	4.3647E-09	3.63114E-06	-5	4.3647E-09	-3.64283E-06
-12.5	3.29888E-06	4.4896E-09	3.287E-06	-5	4.4896E-09	-3.29888E-06
-12	2.96714E-06	5.0671E-09	2.9546E-06	-5	5.0671E-09	-2.96714E-06
-11.5	2.64337E-06	4.6626E-09	2.63143E-06	-5	4.6626E-09	-2.64337E-06
-11	2.33196E-06	4.5907E-09	2.32041E-06	-5	4.5907E-09	-2.33196E-06
-10.5	2.03958E-06	5.0202E-09	2.02763E-06	-5	5.0202E-09	-2.03958E-06
-10	1.75801E-06	4.5251E-09	1.74708E-06	-5	4.5251E-09	-1.75801E-06
-9.5	1.49427E-06	4.1429E-09	1.48444E-06	-5	4.1429E-09	-1.49427E-06
-9	1.24988E-06	3.9214E-09	1.24095E-06	-5	3.9214E-09	-1.24988E-06
-8.5	1.03422E-06	4.1819E-09	1.02521E-06	-5	4.1819E-09	-1.03422E-06
-8	8.36754E-07	3.88527E-09	8.28214E-07	-5	3.88527E-09	-8.36754E-07
-7.5	6.63344E-07	3.47578E-09	6.56871E-07	-5	3.47578E-09	-6.63344E-07
-7	5.17897E-07	3.4815E-09	5.11826E-07	-5	3.4815E-09	-5.17897E-07
-6.5	3.99575E-07	3.7896E-09	3.93567E-07	-5	3.7896E-09	-3.99575E-07
-6	3.00816E-07	3.48105E-09	2.95582E-07	-5	3.48105E-09	-3.00816E-07
-5.5	2.22638E-07	3.3233E-09	2.18038E-07	-5	3.3233E-09	-2.22638E-07
-5	1.63927E-07	3.5062E-09	1.595E-07	-5	3.5062E-09	-1.63927E-07
-4.5	1.19145E-07	3.24929E-09	1.1524E-07	-5	3.24929E-09	-1.19145E-07
-4	8.61045E-08	3.1205E-09	8.25083E-08	-5	3.1205E-09	-8.61045E-08
-3.5	6.30665E-08	3.03973E-09	5.98071E-08	-5	3.03973E-09	-6.30665E-08
-3	4.66416E-08	2.9482E-09	4.36043E-08	-5	2.9482E-09	-4.66416E-08
-2.5	3.52224E-08	2.90694E-09	3.23032E-08	-5	2.90694E-09	-3.52224E-08
-2	2.69792E-08	2.8418E-09	2.41868E-08	-5	2.8418E-09	-2.69792E-08
-1.5	2.1157E-08	2.9177E-09	1.83762E-08	-5	2.9177E-09	-2.1157E-08
-1	1.67802E-08	2.9089E-09	1.40333E-08	-5	2.9089E-09	-1.67802E-08
-0.5	1.35318E-08	3.1387E-09	1.07477E-08	-5	3.1387E-09	-1.35318E-08
0	1.09395E-08	2.9037E-09	8.21044E-09	-5	2.9037E-09	-1.09395E-08
0.5	8.85817E-09	3.0223E-09	6.23608E-09	-5	3.0223E-09	-8.85817E-09
1	7.22907E-09	2.7367E-09	4.70041E-09	-5	2.7367E-09	-7.22907E-09
1.5	6.03873E-09	2.68056E-09	3.48941E-09	-5	2.68056E-09	-6.03873E-09
2	5.04544E-09	2.60517E-09	2.53828E-09	-5	2.60517E-09	-5.04544E-09
2.5	4.26726E-09	2.57422E-09	1.79308E-09	-5	2.57422E-09	-4.26726E-09
3	3.65983E-09	2.56628E-09	1.20267E-09	-5	2.56628E-09	-3.65983E-09
3.5	3.17984E-09	2.55691E-09	7.4148E-10	-5	2.55691E-09	-3.17984E-09
4	2.82243E-09	2.6454E-09	3.7328E-10	-5	2.6454E-09	-2.82243E-09
4.5	2.54775E-09	2.67605E-09	8.141E-11	-5	2.67605E-09	-2.54775E-09
5	2.2844E-09	2.56184E-09	1.3519E-10	-5	2.56184E-09	-2.2844E-09
5	7.06981E-09	7.7439E-09	2.6718E-10	-40	7.7439E-09	-7.06981E-09
4.5	6.15396E-09	5.2115E-09	6.7346E-10	-40	5.2115E-09	-6.15396E-09
4	5.87674E-09	4.5246E-09	1.10862E-09	-40	4.5246E-09	-5.87674E-09
3.5	5.8399E-09	3.9627E-09	1.63409E-09	-40	3.9627E-09	-5.8399E-09
3	6.01576E-09	3.3723E-09	2.27849E-09	-40	3.3723E-09	-6.01576E-09
2.5	6.41799E-09	3.1332E-09	3.06155E-09	-40	3.1332E-09	-6.41799E-09
2	7.02393E-09	2.8702E-09	4.02293E-09	-40	2.8702E-09	-7.02393E-09
1.5	7.87852E-09	2.58938E-09	5.2089E-09	-40	2.58938E-09	-7.87852E-09
1	9.05228E-09	2.2973E-09	6.67803E-09	-40	2.2973E-09	-9.05228E-09
0.5	1.05582E-08	2.0447E-09	8.46804E-09	-40	2.0447E-09	-1.05582E-08
0	1.25255E-08	1.7447E-09	1.07091E-08	-40	1.7447E-09	-1.25255E-08
-0.5	1.50734E-08	1.4962E-09	1.34942E-08	-40	1.4962E-09	-1.50734E-08
-1	1.83459E-08	1.26904E-09	1.69772E-08	-40	1.26904E-09	-1.83459E-08
-1.5	2.25471E-08	1.12479E-09	2.13489E-08	-40	1.12479E-09	-2.25471E-08
-2	2.79121E-08	9.4938E-10	2.6898E-08	-40	9.4938E-10	-2.79121E-08
-2.5	3.48939E-08	7.6995E-10	3.4069E-08	-40	7.6995E-10	-3.48939E-08
-3	4.40737E-08	5.925E-10	4.34536E-08	-40	5.925E-10	-4.40737E-08
-3.5	5.64451E-08	4.0795E-10	5.60393E-08	-40	4.0795E-10	-5.64451E-08
-4	7.32764E-08	2.1778E-10	7.31169E-08	-40	2.1778E-10	-7.32764E-08
-4.5	9.65248E-08	2.719E-11	9.66596E-08	-40	2.719E-11	-9.65248E-08
-5	1.28855E-07	7.622E-11	1.29216E-07	-40	-7.622E-11	-1.28855E-07
-5.5	1.72233E-07	3.6539E-10	1.73098E-07	-40	-3.6539E-10	-1.72233E-07
-6	2.30339E-07	6.0954E-10	2.31701E-07	-40	-6.0954E-10	-2.30339E-07
-6.5	3.06795E-07	8.7727E-10	3.0872E-07	-40	-8.7727E-10	-3.06795E-07
-7	4.04403E-07	1.19831E-09	4.07029E-07	-40	-1.19831E-09	-4.04403E-07
-7.5	5.25844E-07	1.6535E-09	5.29455E-07	-40	-1.6535E-09	-5.25844E-07
-8	6.7401E-07	2.09794E-09	6.78596E-07	-40	-2.09794E-09	-6.7401E-07
-8.5	8.54921E-07	2.37899E-09	8.60012E-07	-40	-2.37899E-09	-8.54921E-07
-9	1.064587E-06	2.8788E-09	1.070839E-06	-40	-2.8788E-09	-1.064587E-06
-9.5	1.31515E-06	2.9075E-09	1.32177E-06	-40	-2.9075E-09	-1.31515E-06
-10	1.58858E-06	3.6937E-09	1.59645E-06	-40	-3.6937E-09	-1.58858E-06
-10.5	1.9239E-06	2.4871E-09	1.92945E-06	-40	-2.4871E-09	-1.9239E-06
-11	2.26879E-06	3.4678E-09	2.27677E-06	-40	-3.4678E-09	-2.26879E-06
-11.5	2.67983E-06	2.6689E-09	2.68614E-06	-40	-2.6689E-09	-2.67983E-06
-12	3.09981E-06	3.9212E-09	3.10881E-06	-40	-3.9212E-09	-3.09981E-06
-12.5	3.56481E-06	4.4602E-09	3.57539E-06	-40	-4.4602E-09	-3.56481E-06
-13	4.06973E-06	4.8715E-09	4.08138E-06	-40	-4.8715E-09	-4.06973E-06
-13.5	4.6174E-06	5.2159E-09	4.63009E-06	-40	-5.2159E-09	-4.6174E-06
-14	5.20501E-06	5.5091E-09	5.21862E-06	-40	-5.5091E-09	-5.20501E-06
-14.5	5.83634E-06	5.7274E-09	5.85085E-06	-40	-5.7274E-09	-5.83634E-06
-15	6.50814E-06	5.9448E-09	6.52347E-06	-40	-5.9448E-09	-6.50814E-06
-15.5	7.21855E-06	6.8951E-09	7.23621E-06	-40	-6.8951E-09	-7.21855E-06
-16	7.97673E-06	6.8144E-09	7.99458E-06	-40	-6.8144E-09	-7.97673E-06
-16.5	8.7751E-06	7.8121E-09	8.79523E-06	-40	-7.8121E-09	-8.7751E-06
-17	9.62286E-06	7.9946E-09	9.64358E-06	-40	-7.9946E-09	-9.62286E-06
-17.5	1.050773E-05	8.9611E-09	1.053056E-05	-40	-8.9611E-09	-1.050773E-05
-18	1.144177E-05	9.5751E-09	1.146609E-05	-40	-9.5751E-09	-1.144177E-05
-18.5	1.24459E-05	8.558E-09	1.24688E-05	-40	-8.558E-09	-1.24459E-05
-19	1.34652E-05	1.02455E-08	1.34899E-05	-40	-1.02455E-08	-1.34652E-05
-19.5	1.45305E-05	1.09743E-08	1.45576E-05	-40	-1.09743E-08	-1.45305E-05
-20	1.56479E-05	1.14602E-08	1.56763E-05	-40	-1.14602E-08	-1.56479E-05
-20.5	1.6809E-05	1.18772E-08	1.68391E-05	-40	-1.18772E-08	-1.6809E-05
-21	1.80224E-05	1.22413E-08	1.80535E-05	-40	-1.22413E-08	-1.80224E-05
-21.5	1.92836E-05	1.2546E-08	1.9316E-05	-40	-1.2546E-08	-1.92836E-05
-22	2.05894E-05	1.26395E-08	2.06227E-05	-40	-1.26395E-08	-2.05894E-05
-22.5	2.19475E-05	1.26322E-08	2.19818E-05	-40	-1.26322E-08	-2.19475E-05
-23	2.33516E-05	1.25755E-08	2.33866E-05	-40	-1.25755E-08	-2.33516E-05
-23.5	2.48098E-05	1.25452E-08	2.48457E-05	-40	-1.25452E-08	-2.48098E-05
-24	2.63138E-05	1.25386E-08	2.6351E-05	-40	-1.25386E-08	-2.63138E-05
-24.5	2.78725E-05	1.25797E-08	2.79106E-05	-40	-1.25797E-08	-2.78725E-05
-25	2.94776E-05	1.26393E-08	2.95169E-05	-40	-1.26393E-08	-2.94776E-05
-25.5	3.11396E-05	1.27335E-08	3.11798E-05	-40	-1.27335E-08	-3.11396E-05
-26	3.28481E-05	1.27861E-08	3.28891E-05	-40	-1.27861E-08	-3.28481E-05
-26.5	3.46141E-05	1.28712E-08	3.46569E-05	-40	-1.28712E-08	-3.46141E-05
-27	3.64269E-05	1.29308E-08	3.6471E-05	-40	-1.29308E-08	-3.64269E-05
-27.5	3.82996E-05	1.30465E-08	3.8345E-05	-40	-1.30465E-08	-3.82996E-05
-28	4.02254E-05	1.3174E-08	4.02722E-05	-40	-1.3174E-08	-4.02254E-05
-28.5	4.22002E-05	1.3289E-08	4.2248E-05	-40	-1.3289E-08	-4.22002E-05
-29	4.42338E-05	1.34645E-08	4.42832E-05	-40	-1.34645E-08	-4.42338E-05
-29.5	4.63188E-05	1.36561E-08	4.63696E-05	-40	-1.36561E-08	-4.63188E-05
-30	4.84651E-05	1.39794E-08	4.85177E-05	-40	-1.39794E-08	-4.84651E-05
-30.5	5.06616E-05	1.43935E-08	5.07157E-05	-40	-1.43935E-08	-5.06616E-05
-31	5.29207E-05	1.47927E-08	5.29768E-05	-40	-1.47927E-08	-5.29207E-05
-31.5	5.52371E-05	1.52494E-08	5.52951E-05	-40	-1.52494E-08	-5.52371E-05
-32	5.7605E-05	1.58502E-08	5.76648E-05	-40	-1.58502E-08	-5.7605E-05
-32.5	6.00307E-05	1.65355E-08	6.00936E-05	-40	-1.65355E-08	-6.00307E-05
-33	6.25224E-05	1.71848E-08	6.25868E-05	-40	-1.71848E-08	-6.25224E-05
-33.5	6.50666E-05	1.78277E-08	6.51336E-05	-40	-1.78277E-08	-6.50666E-05
-34	6.767E-05	1.86414E-08	6.7738E-05	-40	-1.86414E-08	-6.767E-05
-34.5	7.03403E-05	1.96156E-08	7.04121E-05	-40	-1.96156E-08	-7.03403E-05
-35	7.30616E-05	2.06146E-08	7.3136E-05	-40	-2.06146E-08	-7.30616E-05
-35.5	7.58449E-05	2.15408E-08	7.59223E-05	-40	-2.15408E-08	-7.58449E-05
-36	7.86992E-05	2.26826E-08	7.87796E-05	-40	-2.26826E-08	-7.86992E-05
-36.5	8.16052E-05	2.37508E-08	8.16897E-05	-40	-2.37508E-08	-8.16052E-05
-37	8.45757E-05	2.46463E-08	8.4661E-05	-40	-2.46463E-08	-8.45757E-05
-37.5	8.76146E-05	2.58252E-08	8.77035E-05	-40	-2.58252E-08	-8.76146E-05
-38	9.07085E-05	2.68971E-08	9.08001E-05	-40	-2.68971E-08	-9.07085E-05
-38.5	9.38741E-05	2.84603E-08	9.39694E-05	-40	-2.84603E-08	-9.38741E-05
-39	9.70927E-05	3.0285E-08	9.71927E-05	-40	-3.0285E-08	-9.70927E-05
-39.5	0.0001003864	3.18906E-08	0.0001004899	-40	-3.18906E-08	-0.0001003864
-40	0.0001037426	3.32741E-08	0.0001038493	-40	-3.32741E-08	-0.0001037426
-40	0.0001039454	2.88746E-08	0.0001040248	-40	-2.88746E-08	-0.0001039454
-39.5	0.0001009522	2.23549E-08	0.0001009909	-40	-2.23549E-08	-0.0001009522
-39	9.79199E-05	1.94663E-08	9.79415E-05	-40	-1.94663E-08	-9.79199E-05
-38.5	9.49066E-05	1.69684E-08	9.4916E-05	-40	-1.69684E-08	-9.49066E-05
-38	9.19074E-05	1.53372E-08	9.19074E-05	-40	-1.53372E-08	-9.19074E-05
-37.5	8.8949E-05	1.38133E-08	8.89447E-05	-40	-1.38133E-08	-8.8949E-05
-37	8.60226E-05	1.21614E-08	8.60129E-05	-40	-1.21614E-08	-8.60226E-05
-36.5	8.31514E-05	1.05467E-08	8.31366E-05	-40	-1.05467E-08	-8.31514E-05
-36	8.03147E-05	1.03386E-08	8.03001E-05	-40	-1.03386E-08	-8.03147E-05
-35.5	7.75332E-05	8.2784E-09	7.75139E-05	-40	-8.2784E-09	-7.75332E-05
-35	7.47907E-05	8.2536E-09	7.47737E-05	-40	-8.2536E-09	-7.47907E-05
-34.5	7.21068E-05	7.5262E-09	7.20893E-05	-40	-7.5262E-09	-7.21068E-05
-34	6.94669E-05	6.8186E-09	6.94486E-05	-40	-6.8186E-09	-6.94669E-05
-33.5	6.68878E-05	6.0351E-09	6.68684E-05	-40	-6.0351E-09	-6.68878E-05
-33	6.42671E-05	7.9017E-09	6.42602E-05	-40	-7.9017E-09	-6.42671E-05
